ZPLOT2 ASCII
  Measured Data, ZPlot:       3.4a
  Experiment Type:            Sweep Frequency, Control Voltage
  Date:                       09-25-2019
  Time:                       17:41:26
  Open Circuit Potential (V): -0,0243
  Begin User Comments:        0
  End User Comments:          0
  Begin Experiment:           0
    Potential-DC:             0
    Potential-DC Type:        1
    Potential-AC:             50
    Potential-Monitor Type:   0
    Potential-Monitor TargetI:1
    Potential-Monitor Limit:  3000
    Potential-Monitor Error:  25
    Current-DC:               0
    Current-AC:               0,1
    Current-Monitor Type:     0
    Current-Monitor TargetE:  20
    Current-Monitor Limit:    60
    Current-Monitor Error:    25
    vs Freq-Initial:          65000
    vs Freq-Final:            0,1
    vs Freq-Lin/Log Type:     1
    vs Freq-Linear Type:      1
    vs Freq-Linear Interval:  100
    vs Freq-Log Type:         0
    vs Freq-Log Interval:     10
    Harmonics:                3
    PolE-Initial:             0
    PolE-Final:               0,2
    PolE-InitialType:         0
    PolE-FinalType:           0
    PolE-SweepRate:           1
    PolE-SweepRateType:       0
    PolE-DataRate:            5
    PolE-SegmentNo:           2
    PolE-IR:                  0
    AmplE-Initial:            10
    AmplE-Final:              200
    AmplE-SweepRate:          1
    AmplE-DataRate:           5
    AmplE-SegmentNo:          2
    PolI-Initial:             0
    PolI-Vertex:              0,01
    PolI-Final:               0,01
    PolI-SweepRate:           0,1
    PolI-SweepRateType:       0
    PolI-DataRate:            5
    PolI-SegmentNo:           2
    AmplI-Initial:            0,1
    AmplI-Final:              10
    AmplI-SweepRate:          0,1
    AmplI-DataRate:           5
    AmplI-SegmentNo:          2
    vs Time-Freq:             1000
    vs Time-Harmonic:         1
    vs Time-Total Time:       100
    vs Time-Time Type:        0
    vs Time-Interval:         5
  End Experiment:             0
  Begin Pstat/Gstat:          1287
    Pstat Range High:         0
    Pstat Range Low:          0
    Pstat Range Frequency:    5000
    Pstat Range Minimum:      0
    Pstat Limit Range:        0
    Pstat Limit Type:         2
    Pstat Bandwidth:          2
    Pstat Use Aux:            0
    Gstat Range:              0
    Gstat Bandwidth:          2
    Filter:                   1
    Error Beep:               0
    Bias Rejection:           1
    Attenuator:               2
    Grounding:                0
    Calibration File
  End Pstat/Gstat:            1287
  Begin Analyzer:             1250
    Z60 Mode:                 3
    Z60 GD Freq-:             5
    Z60 GD Freq+:             5
    Bias Voltage:             0
    Auto Integration Type:    0
    Integration Time Type:    0
    Integration Seconds:      0,2
    Integration Cycles:       1
    Delay Time Type:          1
    Delay Seconds:            0
    Delay Cycles:             0
    Source:                   2
    SourceI:                  1
    Error Beep:               0
    Range V1:                 0
    Coupling V1:              0
    Input V1:                 0
    Outer V1:                 0
    Location V1:              1
    Range V2:                 0
    Coupling V2:              0
    Input V2:                 0
    Outer V2:                 0
    Location V2:              1
    Coupling I:               0
  End Analyzer:               1250
  Begin Information:          Cell Information
    Surface Area:             1
    Density:                  0
    Weight:                   0
    Polarity:                 0
    PolarityI:                0
    Corrosion Unit Type:      0
    Reference Type:           0
    Reference Potential:      0
    User-Defined Potential:   0
    Stern-Geary:              26
  End Information:            Cell Information
  Null Configuration:         0,3,0,1,65000,0.1
  Data Points:                60
  Freq(Hz)	Ampl	Bias	Time(Sec)	Z'(a)	Z''(b)	Aux	Err	Range
End Comments
1.376900E+04	0.0000E+00	0.0000E+00	0.000000E+00	1.9084E+00	1.3093E-01	0.0000E+00	0	0	
1.100000E+04	0.0000E+00	0.0000E+00	0.000000E+00	1.9190E+00	9.4932E-02	0.0000E+00	0	0	
8.788301E+03	0.0000E+00	0.0000E+00	0.000000E+00	1.9235E+00	5.5857E-02	0.0000E+00	0	0	
7.021000E+03	0.0000E+00	0.0000E+00	0.000000E+00	1.9241E+00	3.8317E-02	0.0000E+00	0	0	
5.609100E+03	0.0000E+00	0.0000E+00	0.000000E+00	1.9322E+00	1.1453E-02	0.0000E+00	0	0	
4.481200E+03	0.0000E+00	0.0000E+00	0.000000E+00	1.9358E+00	4.4144E-04	0.0000E+00	0	0	
3.580100E+03	0.0000E+00	0.0000E+00	0.000000E+00	1.9099E+00	-4.2386E-02	0.0000E+00	0	0	
2.860100E+03	0.0000E+00	0.0000E+00	0.000000E+00	1.9214E+00	-4.7305E-02	0.0000E+00	0	0	
2.285000E+03	0.0000E+00	0.0000E+00	0.000000E+00	1.9313E+00	-7.5747E-02	0.0000E+00	0	0	
1.825500E+03	0.0000E+00	0.0000E+00	0.000000E+00	1.9364E+00	-9.5098E-02	0.0000E+00	0	0	
1.458400E+03	0.0000E+00	0.0000E+00	0.000000E+00	1.9612E+00	-1.2206E-01	0.0000E+00	0	0	
1.165100E+03	0.0000E+00	0.0000E+00	0.000000E+00	1.9584E+00	-1.4845E-01	0.0000E+00	0	0	
9.308200E+02	0.0000E+00	0.0000E+00	0.000000E+00	1.9705E+00	-1.7360E-01	0.0000E+00	0	0	
7.436399E+02	0.0000E+00	0.0000E+00	0.000000E+00	2.0125E+00	-1.9816E-01	0.0000E+00	0	0	
5.941001E+02	0.0000E+00	0.0000E+00	0.000000E+00	2.0220E+00	-2.5077E-01	0.0000E+00	0	0	
4.746300E+02	0.0000E+00	0.0000E+00	0.000000E+00	2.0560E+00	-2.9691E-01	0.0000E+00	0	0	
3.791900E+02	0.0000E+00	0.0000E+00	0.000000E+00	2.0854E+00	-3.5663E-01	0.0000E+00	0	0	
3.029300E+02	0.0000E+00	0.0000E+00	0.000000E+00	2.1141E+00	-4.0482E-01	0.0000E+00	0	0	
2.420200E+02	0.0000E+00	0.0000E+00	0.000000E+00	2.1744E+00	-4.8075E-01	0.0000E+00	0	0	
1.933500E+02	0.0000E+00	0.0000E+00	0.000000E+00	2.2127E+00	-5.7240E-01	0.0000E+00	0	0	
1.544700E+02	0.0000E+00	0.0000E+00	0.000000E+00	2.2468E+00	-6.6617E-01	0.0000E+00	0	0	
1.234100E+02	0.0000E+00	0.0000E+00	0.000000E+00	2.3550E+00	-7.8646E-01	0.0000E+00	0	0	
9.858901E+01	0.0000E+00	0.0000E+00	0.000000E+00	2.4610E+00	-8.9374E-01	0.0000E+00	0	0	
7.876401E+01	0.0000E+00	0.0000E+00	0.000000E+00	2.5980E+00	-1.0399E+00	0.0000E+00	0	0	
6.292500E+01	0.0000E+00	0.0000E+00	0.000000E+00	2.7755E+00	-1.1648E+00	0.0000E+00	0	0	
4.973200E+01	0.0000E+00	0.0000E+00	0.000000E+00	2.9746E+00	-1.3192E+00	0.0000E+00	0	0	
3.883300E+01	0.0000E+00	0.0000E+00	0.000000E+00	3.2959E+00	-1.4087E+00	0.0000E+00	0	0	
2.992200E+01	0.0000E+00	0.0000E+00	0.000000E+00	3.6410E+00	-1.4569E+00	0.0000E+00	0	0	
2.271800E+01	0.0000E+00	0.0000E+00	0.000000E+00	4.0128E+00	-1.4237E+00	0.0000E+00	0	0	
1.697100E+01	0.0000E+00	0.0000E+00	0.000000E+00	4.3708E+00	-1.3039E+00	0.0000E+00	0	0	
1.245300E+01	0.0000E+00	0.0000E+00	0.000000E+00	4.6762E+00	-1.1151E+00	0.0000E+00	0	0	
8.960700E+00	0.0000E+00	0.0000E+00	0.000000E+00	4.9088E+00	-8.9557E-01	0.0000E+00	0	0	
6.313200E+00	0.0000E+00	0.0000E+00	0.000000E+00	5.0736E+00	-6.8175E-01	0.0000E+00	0	0	
4.349600E+00	0.0000E+00	0.0000E+00	0.000000E+00	5.1639E+00	-4.8677E-01	0.0000E+00	0	0	
2.928900E+00	0.0000E+00	0.0000E+00	0.000000E+00	5.2186E+00	-3.3479E-01	0.0000E+00	0	0	
1.929000E+00	0.0000E+00	0.0000E+00	0.000000E+00	5.2509E+00	-2.2300E-01	0.0000E+00	0	0	
1.245700E+00	0.0000E+00	0.0000E+00	0.000000E+00	5.2636E+00	-1.4540E-01	0.0000E+00	0	0	
7.924500E-01	0.0000E+00	0.0000E+00	0.000000E+00	5.2709E+00	-9.5496E-02	0.0000E+00	0	0	
5.000000E-01	0.0000E+00	0.0000E+00	0.000000E+00	5.2807E+00	-6.6487E-02	0.0000E+00	0	0	
